# //  Questa Sim-64
# //  Version 10.4e win64 Apr  9 2016
# //
# //  Copyright 1991-2016 Mentor Graphics Corporation
# //  All Rights Reserved.
# //
# //  THIS WORK CONTAINS TRADE SECRET AND PROPRIETARY INFORMATION
# //  WHICH IS THE PROPERTY OF MENTOR GRAPHICS CORPORATION OR ITS
# //  LICENSORS AND IS SUBJECT TO LICENSE TERMS.
# //  THIS DOCUMENT CONTAINS TRADE SECRETS AND COMMERCIAL OR FINANCIAL
# //  INFORMATION THAT ARE PRIVILEGED, CONFIDENTIAL, AND EXEMPT FROM
# //  DISCLOSURE UNDER THE FREEDOM OF INFORMATION ACT, 5 U.S.C. SECTION 552.
# //  FURTHERMORE, THIS INFORMATION IS PROHIBITED FROM DISCLOSURE UNDER
# //  THE TRADE SECRETS ACT, 18 U.S.C. SECTION 1905.
# //
# vsim -novopt apb_top 
# Start time: 12:12:31 on Aug 10,2023
# ** Warning: (vsim-8891) All optimizations are turned off because the -novopt switch is in effect. This will cause your simulation to run very slowly. If you are using this switch to preserve visibility for Debug or PLI features please see the User's Manual section on Preserving Object Visibility with vopt.
# 
# Refreshing L:/APB_ALL/SIM/work.apb_top
# Refreshing L:/APB_ALL/SIM/work.apb_pkg
# Loading sv_std.std
# Loading mtiUvm.uvm_pkg
# Loading work.apb_pkg
# Loading work.apb_top
# Refreshing L:/APB_ALL/SIM/work.apb_inf
# Loading work.apb_inf
# Loading mtiUvm.questa_uvm_pkg
# Loading C:/questasim64_10.4e/uvm-1.1d\win64\uvm_dpi.dll
do run.do
# End time: 12:12:52 on Aug 10,2023, Elapsed time: 0:00:21
# Errors: 0, Warnings: 1
# vsim -novopt apb_top 
# Start time: 12:12:52 on Aug 10,2023
# ** Warning: (vsim-8891) All optimizations are turned off because the -novopt switch is in effect. This will cause your simulation to run very slowly. If you are using this switch to preserve visibility for Debug or PLI features please see the User's Manual section on Preserving Object Visibility with vopt.
# 
# Loading sv_std.std
# Loading mtiUvm.uvm_pkg
# Loading work.apb_pkg
# Loading work.apb_top
# Loading work.apb_inf
# Loading mtiUvm.questa_uvm_pkg
# Loading C:/questasim64_10.4e/uvm-1.1d\win64\uvm_dpi.dll
# ** Warning: (vsim-WLF-5000) WLF file currently in use: vsim.wlf
# 
#           File in use by: Harshil  Hostname: LAPTOP-5Q4A944H  ProcessID: 18952
# 
#           Attempting to use alternate WLF file "./wlftcy47yk".
# ** Warning: (vsim-WLF-5001) Could not open WLF file: vsim.wlf
# 
#           Using alternate file: ./wlftcy47yk
# 
# ----------------------------------------------------------------
# UVM-1.1d
# (C) 2007-2013 Mentor Graphics Corporation
# (C) 2007-2013 Cadence Design Systems, Inc.
# (C) 2006-2013 Synopsys, Inc.
# (C) 2011-2013 Cypress Semiconductor Corp.
# ----------------------------------------------------------------
# 
#   ***********       IMPORTANT RELEASE NOTES         ************
# 
#   You are using a version of the UVM library that has been compiled
#   with `UVM_NO_DEPRECATED undefined.
#   See http://www.eda.org/svdb/view.php?id=3313 for more details.
# 
#   You are using a version of the UVM library that has been compiled
#   with `UVM_OBJECT_MUST_HAVE_CONSTRUCTOR undefined.
#   See http://www.eda.org/svdb/view.php?id=3770 for more details.
# 
#       (Specify +UVM_NO_RELNOTES to turn off this notice)
# 
# UVM_INFO verilog_src/questa_uvm_pkg-1.2/src/questa_uvm_pkg.sv(215) @ 0: reporter [Questa UVM] QUESTA_UVM-1.2.3
# UVM_INFO verilog_src/questa_uvm_pkg-1.2/src/questa_uvm_pkg.sv(217) @ 0: reporter [Questa UVM]  questa_uvm::init(+struct)
# UVM_INFO @ 0: reporter [RNTST] Running test apb_read_with_wait_test...
# UVM_INFO @ 0: reporter [UVMTOP] UVM testbench topology:
# --------------------------------------------------------------------
# Name                         Type                        Size  Value
# --------------------------------------------------------------------
# uvm_test_top                 apb_read_with_wait_test     -     @462 
#   env_h                      apb_env                     -     @470 
#     mas_agent_h              apb_mas_agent               -     @478 
#       drv_h                  apb_mas_drv                 -     @521 
#         rsp_port             uvm_analysis_port           -     @538 
#         seq_item_port        uvm_seq_item_pull_port      -     @529 
#       mon_h                  apb_mas_mon                 -     @547 
#         an_mas_port          uvm_analysis_port           -     @555 
#       seqr_h                 apb_mas_seqr                -     @564 
#         rsp_export           uvm_analysis_export         -     @572 
#         seq_item_export      uvm_seq_item_pull_imp       -     @678 
#         arbitration_queue    array                       0     -    
#         lock_queue           array                       0     -    
#         num_last_reqs        integral                    32    'd1  
#         num_last_rsps        integral                    32    'd1  
#     sb_h                     apb_sb                      -     @494 
#       an_imp_mas             uvm_analysis_imp_mas        -     @502 
#       an_imp_slv             uvm_analysis_imp_slv        -     @511 
#     slv_agent_h              apb_slv_agent               -     @486 
#       drv_h                  apb_slv_drv                 -     @695 
#         rsp_port             uvm_analysis_port           -     @712 
#         seq_item_port        uvm_seq_item_pull_port      -     @703 
#         no_of_cycle          integral                    4     'h0  
#       mon_h                  apb_slv_mon                 -     @721 
#         an_slv_port          uvm_analysis_port           -     @729 
#       seqr_h                 apb_slv_seqr                -     @738 
#         item_collected_fifo  uvm_tlm_analysis_fifo #(T)  -     @870 
#           analysis_export    uvm_analysis_imp            -     @914 
#           get_ap             uvm_analysis_port           -     @905 
#           get_peek_export    uvm_get_peek_imp            -     @887 
#           put_ap             uvm_analysis_port           -     @896 
#           put_export         uvm_put_imp                 -     @878 
#         item_export          uvm_analysis_export         -     @861 
#         rsp_export           uvm_analysis_export         -     @746 
#         seq_item_export      uvm_seq_item_pull_imp       -     @852 
#         arbitration_queue    array                       0     -    
#         lock_queue           array                       0     -    
#         num_last_reqs        integral                    32    'd1  
#         num_last_rsps        integral                    32    'd1  
# --------------------------------------------------------------------
# 
# ----------------------SLV SQR--------------------
# --------------------------------------drive reset---------------------------------------
# ----------------------SLV SQS--------------------
# PR_GENERIC_STABLE  PASS                    5
# PWDATA IS STABLE WHEN TRANSFER                    5
# UVM_INFO ..\ENV\Master/apb_mas_mon.sv(68) @ 15: uvm_test_top.env_h.mas_agent_h.mon_h [mon_h] psel = 0, penb = 0, pwrite = 0, pwdata = 00000000, paddr = 00000000, pready = 0, prdata = 00000000
# UVM_INFO ..\ENV\Master/apb_sb.sv(33) @ 15: uvm_test_top.env_h.sb_h [apb_sb] EXP DATA - WRITE MAS
# -----------------------------------------
# Name      Type           Size  Value     
# -----------------------------------------
# trans_h   apb_mas_trans  -     @926      
#   paddr   integral       32    'hc       
#   pwrite  integral       1     'h1       
#   prdata  integral       32    'h0       
#   pwdata  integral       32    'h79046b41
#   delay   integral       6     'h0       
# -----------------------------------------
# PWDATA IS STABLE WHEN TRANSFER                   15
# PR_GENERIC_STABLE  PASS                   15
# PENABLE IS STABLE WHEN TRANSFER                   15
# IDLE PASS                   15
# UVM_INFO ..\ENV\Master/apb_mas_mon.sv(68) @ 25: uvm_test_top.env_h.mas_agent_h.mon_h [mon_h] psel = 0, penb = 0, pwrite = 0, pwdata = 00000000, paddr = 00000000, pready = 0, prdata = 00000000
# no_of_cycles                   25 5
# UVM_INFO ..\ENV\Master/apb_sb.sv(33) @ 25: uvm_test_top.env_h.sb_h [apb_sb] EXP DATA - WRITE MAS
# ------------------------------------------------------------------------------------------------
# Name                           Type           Size  Value                                       
# ------------------------------------------------------------------------------------------------
# trans_h                        apb_mas_trans  -     @926                                        
#   paddr                        integral       32    'hc                                         
#   pwrite                       integral       1     'h1                                         
#   prdata                       integral       32    'h0                                         
#   pwdata                       integral       32    'h79046b41                                  
#   delay                        integral       6     'h0                                         
#   depth                        int            32    'd2                                         
#   parent sequence (name)       string         6     sseq_h                                      
#   parent sequence (full name)  string         44    uvm_test_top.env_h.slv_agent_h.seqr_h.sseq_h
#   sequencer                    string         37    uvm_test_top.env_h.slv_agent_h.seqr_h       
# ------------------------------------------------------------------------------------------------
# SETUP PASS                   25
# UVM_INFO ..\ENV\Master/apb_mas_mon.sv(68) @ 35: uvm_test_top.env_h.mas_agent_h.mon_h [mon_h] psel = 0, penb = 0, pwrite = 0, pwdata = 00000000, paddr = 00000000, pready = 0, prdata = 00000000
# no_of_cycles                   35 5
# UVM_INFO ..\ENV\Master/apb_sb.sv(33) @ 35: uvm_test_top.env_h.sb_h [apb_sb] EXP DATA - WRITE MAS
# ------------------------------------------------------------------------------------------------
# Name                           Type           Size  Value                                       
# ------------------------------------------------------------------------------------------------
# trans_h                        apb_mas_trans  -     @926                                        
#   paddr                        integral       32    'hc                                         
#   pwrite                       integral       1     'h1                                         
#   prdata                       integral       32    'h0                                         
#   pwdata                       integral       32    'h79046b41                                  
#   delay                        integral       6     'h0                                         
#   depth                        int            32    'd2                                         
#   parent sequence (name)       string         6     sseq_h                                      
#   parent sequence (full name)  string         44    uvm_test_top.env_h.slv_agent_h.seqr_h.sseq_h
#   sequencer                    string         37    uvm_test_top.env_h.slv_agent_h.seqr_h       
# ------------------------------------------------------------------------------------------------
# ACCESS_STATE_WAIT PASS                   35
# UVM_INFO ..\ENV\Master/apb_mas_mon.sv(68) @ 45: uvm_test_top.env_h.mas_agent_h.mon_h [mon_h] psel = 0, penb = 0, pwrite = 0, pwdata = 00000000, paddr = 00000000, pready = 0, prdata = 00000000
# no_of_cycles                   45 5
# UVM_INFO ..\ENV\Master/apb_sb.sv(33) @ 45: uvm_test_top.env_h.sb_h [apb_sb] EXP DATA - WRITE MAS
# ------------------------------------------------------------------------------------------------
# Name                           Type           Size  Value                                       
# ------------------------------------------------------------------------------------------------
# trans_h                        apb_mas_trans  -     @926                                        
#   paddr                        integral       32    'hc                                         
#   pwrite                       integral       1     'h1                                         
#   prdata                       integral       32    'h0                                         
#   pwdata                       integral       32    'h79046b41                                  
#   delay                        integral       6     'h0                                         
#   depth                        int            32    'd2                                         
#   parent sequence (name)       string         6     sseq_h                                      
#   parent sequence (full name)  string         44    uvm_test_top.env_h.slv_agent_h.seqr_h.sseq_h
#   sequencer                    string         37    uvm_test_top.env_h.slv_agent_h.seqr_h       
# ------------------------------------------------------------------------------------------------
# ACCESS_STATE_WAIT PASS                   45
# UVM_INFO ..\ENV\Master/apb_mas_mon.sv(68) @ 55: uvm_test_top.env_h.mas_agent_h.mon_h [mon_h] psel = 0, penb = 0, pwrite = 0, pwdata = 00000000, paddr = 00000000, pready = 0, prdata = 00000000
# no_of_cycles                   55 5
# UVM_INFO ..\ENV\Master/apb_sb.sv(33) @ 55: uvm_test_top.env_h.sb_h [apb_sb] EXP DATA - WRITE MAS
# ------------------------------------------------------------------------------------------------
# Name                           Type           Size  Value                                       
# ------------------------------------------------------------------------------------------------
# trans_h                        apb_mas_trans  -     @926                                        
#   paddr                        integral       32    'hc                                         
#   pwrite                       integral       1     'h1                                         
#   prdata                       integral       32    'h0                                         
#   pwdata                       integral       32    'h79046b41                                  
#   delay                        integral       6     'h0                                         
#   depth                        int            32    'd2                                         
#   parent sequence (name)       string         6     sseq_h                                      
#   parent sequence (full name)  string         44    uvm_test_top.env_h.slv_agent_h.seqr_h.sseq_h
#   sequencer                    string         37    uvm_test_top.env_h.slv_agent_h.seqr_h       
# ------------------------------------------------------------------------------------------------
# ACCESS_STATE_WAIT PASS                   55
# UVM_INFO ..\ENV\Master/apb_mas_mon.sv(68) @ 65: uvm_test_top.env_h.mas_agent_h.mon_h [mon_h] psel = 0, penb = 0, pwrite = 0, pwdata = 00000000, paddr = 00000000, pready = 0, prdata = 00000000
# no_of_cycles                   65 5
# no_of_cycles out of loop                   65 5
# pready 1                  65
# UVM_INFO ..\ENV\Master/apb_sb.sv(33) @ 65: uvm_test_top.env_h.sb_h [apb_sb] EXP DATA - WRITE MAS
# ------------------------------------------------------------------------------------------------
# Name                           Type           Size  Value                                       
# ------------------------------------------------------------------------------------------------
# trans_h                        apb_mas_trans  -     @926                                        
#   paddr                        integral       32    'hc                                         
#   pwrite                       integral       1     'h1                                         
#   prdata                       integral       32    'h0                                         
#   pwdata                       integral       32    'h79046b41                                  
#   delay                        integral       6     'h0                                         
#   depth                        int            32    'd2                                         
#   parent sequence (name)       string         6     sseq_h                                      
#   parent sequence (full name)  string         44    uvm_test_top.env_h.slv_agent_h.seqr_h.sseq_h
#   sequencer                    string         37    uvm_test_top.env_h.slv_agent_h.seqr_h       
# ------------------------------------------------------------------------------------------------
# UVM_INFO ..\ENV\Slave/apb_slv_base_seqs.sv(31) @ 65: uvm_test_top.env_h.slv_agent_h.seqr_h@@sseq_h [sseq_h] before psel
# UVM_INFO ..\ENV\Slave/apb_slv_base_seqs.sv(46) @ 65: uvm_test_top.env_h.slv_agent_h.seqr_h@@sseq_h [sseq_h] **********************added to memory
# UVM_INFO ..\ENV\Slave/apb_slv_base_seqs.sv(48) @ 65: uvm_test_top.env_h.slv_agent_h.seqr_h@@sseq_h [sseq_h] [3]=79046b41
# ACCESS_STATE_WAIT PASS                   65
# ------------------------------------------------------------------------------------------------
# Name                           Type           Size  Value                                       
# ------------------------------------------------------------------------------------------------
# trans_h                        apb_mas_trans  -     @949                                        
#   paddr                        integral       32    'hc                                         
#   pwrite                       integral       1     'h1                                         
#   prdata                       integral       32    'h0                                         
#   pwdata                       integral       32    'h79046b41                                  
#   delay                        integral       6     'h0                                         
#   begin_time                   time           64    5                                           
#   depth                        int            32    'd2                                         
#   parent sequence (name)       string         6     mseq_h                                      
#   parent sequence (full name)  string         44    uvm_test_top.env_h.mas_agent_h.seqr_h.mseq_h
#   sequencer                    string         37    uvm_test_top.env_h.mas_agent_h.seqr_h       
# ------------------------------------------------------------------------------------------------
# UVM_INFO ..\ENV\Master/apb_mas_mon.sv(68) @ 75: uvm_test_top.env_h.mas_agent_h.mon_h [mon_h] psel = 1, penb = 1, pwrite = 1, pwdata = 79046b41, paddr = 0000000c, pready = 1, prdata = 00000000
# UVM_INFO ..\ENV\Master/apb_sb.sv(33) @ 75: uvm_test_top.env_h.sb_h [apb_sb] EXP DATA - WRITE MAS
# ----------------------------------------------
# Name           Type           Size  Value     
# ----------------------------------------------
# apb_mas_trans  apb_mas_trans  -     @1029     
#   paddr        integral       32    'hc       
#   pwrite       integral       1     'h1       
#   prdata       integral       32    'h0       
#   pwdata       integral       32    'h79046b41
#   delay        integral       6     'h0       
# ----------------------------------------------
# UVM_INFO ..\ENV\Master/apb_sb.sv(33) @ 75: uvm_test_top.env_h.sb_h [apb_sb] EXP DATA - WRITE MAS
# ------------------------------------------------------------------------------------------------
# Name                           Type           Size  Value                                       
# ------------------------------------------------------------------------------------------------
# trans_h                        apb_mas_trans  -     @926                                        
#   paddr                        integral       32    'hc                                         
#   pwrite                       integral       1     'h1                                         
#   prdata                       integral       32    'h0                                         
#   pwdata                       integral       32    'h79046b41                                  
#   delay                        integral       6     'h0                                         
#   begin_time                   time           64    65                                          
#   depth                        int            32    'd2                                         
#   parent sequence (name)       string         6     sseq_h                                      
#   parent sequence (full name)  string         44    uvm_test_top.env_h.slv_agent_h.seqr_h.sseq_h
#   sequencer                    string         37    uvm_test_top.env_h.slv_agent_h.seqr_h       
# ------------------------------------------------------------------------------------------------
# ACCESS_STATE_WAIT PASS                   75
# UVM_INFO ..\ENV\Master/apb_mas_mon.sv(68) @ 85: uvm_test_top.env_h.mas_agent_h.mon_h [mon_h] psel = 1, penb = 1, pwrite = 0, pwdata = 00000000, paddr = 00000000, pready = 1, prdata = 00000000
# UVM_INFO ..\ENV\Master/apb_sb.sv(33) @ 85: uvm_test_top.env_h.sb_h [apb_sb] EXP DATA - WRITE MAS
# ------------------------------------------------------------------------------------------------
# Name                           Type           Size  Value                                       
# ------------------------------------------------------------------------------------------------
# trans_h                        apb_mas_trans  -     @926                                        
#   paddr                        integral       32    'h4                                         
#   pwrite                       integral       1     'h1                                         
#   prdata                       integral       32    'h0                                         
#   pwdata                       integral       32    'h737fea8                                   
#   delay                        integral       6     'h0                                         
#   begin_time                   time           64    65                                          
#   end_time                     time           64    75                                          
#   depth                        int            32    'd2                                         
#   parent sequence (name)       string         6     sseq_h                                      
#   parent sequence (full name)  string         44    uvm_test_top.env_h.slv_agent_h.seqr_h.sseq_h
#   sequencer                    string         37    uvm_test_top.env_h.slv_agent_h.seqr_h       
# ------------------------------------------------------------------------------------------------
# PWDATA IS STABLE WHEN TRANSFER                   85
# PR_GENERIC_STABLE  PASS                   85
# PENABLE IS STABLE WHEN TRANSFER                   85
# ACCESS_STATE_LAST PASS                   85
# UVM_INFO ..\ENV\Master/apb_mas_mon.sv(68) @ 95: uvm_test_top.env_h.mas_agent_h.mon_h [mon_h] psel = 1, penb = 1, pwrite = 0, pwdata = 00000000, paddr = 00000000, pready = 1, prdata = 00000000
# no_of_cycles                   95 5
# UVM_INFO ..\ENV\Master/apb_sb.sv(33) @ 95: uvm_test_top.env_h.sb_h [apb_sb] EXP DATA - WRITE MAS
# ------------------------------------------------------------------------------------------------
# Name                           Type           Size  Value                                       
# ------------------------------------------------------------------------------------------------
# trans_h                        apb_mas_trans  -     @926                                        
#   paddr                        integral       32    'h4                                         
#   pwrite                       integral       1     'h1                                         
#   prdata                       integral       32    'h0                                         
#   pwdata                       integral       32    'h737fea8                                   
#   delay                        integral       6     'h0                                         
#   begin_time                   time           64    65                                          
#   end_time                     time           64    75                                          
#   depth                        int            32    'd2                                         
#   parent sequence (name)       string         6     sseq_h                                      
#   parent sequence (full name)  string         44    uvm_test_top.env_h.slv_agent_h.seqr_h.sseq_h
#   sequencer                    string         37    uvm_test_top.env_h.slv_agent_h.seqr_h       
# ------------------------------------------------------------------------------------------------
# SETUP PASS                   95
# UVM_INFO ..\ENV\Master/apb_mas_mon.sv(68) @ 105: uvm_test_top.env_h.mas_agent_h.mon_h [mon_h] psel = 1, penb = 1, pwrite = 0, pwdata = 00000000, paddr = 00000000, pready = 1, prdata = 00000000
# no_of_cycles                  105 5
# UVM_INFO ..\ENV\Master/apb_sb.sv(33) @ 105: uvm_test_top.env_h.sb_h [apb_sb] EXP DATA - WRITE MAS
# ------------------------------------------------------------------------------------------------
# Name                           Type           Size  Value                                       
# ------------------------------------------------------------------------------------------------
# trans_h                        apb_mas_trans  -     @926                                        
#   paddr                        integral       32    'h4                                         
#   pwrite                       integral       1     'h1                                         
#   prdata                       integral       32    'h0                                         
#   pwdata                       integral       32    'h737fea8                                   
#   delay                        integral       6     'h0                                         
#   begin_time                   time           64    65                                          
#   end_time                     time           64    75                                          
#   depth                        int            32    'd2                                         
#   parent sequence (name)       string         6     sseq_h                                      
#   parent sequence (full name)  string         44    uvm_test_top.env_h.slv_agent_h.seqr_h.sseq_h
#   sequencer                    string         37    uvm_test_top.env_h.slv_agent_h.seqr_h       
# ------------------------------------------------------------------------------------------------
# ACCESS_STATE_WAIT PASS                  105
# UVM_INFO ..\ENV\Master/apb_mas_mon.sv(68) @ 115: uvm_test_top.env_h.mas_agent_h.mon_h [mon_h] psel = 1, penb = 1, pwrite = 0, pwdata = 00000000, paddr = 00000000, pready = 1, prdata = 00000000
# no_of_cycles                  115 5
# UVM_INFO ..\ENV\Master/apb_sb.sv(33) @ 115: uvm_test_top.env_h.sb_h [apb_sb] EXP DATA - WRITE MAS
# ------------------------------------------------------------------------------------------------
# Name                           Type           Size  Value                                       
# ------------------------------------------------------------------------------------------------
# trans_h                        apb_mas_trans  -     @926                                        
#   paddr                        integral       32    'h4                                         
#   pwrite                       integral       1     'h1                                         
#   prdata                       integral       32    'h0                                         
#   pwdata                       integral       32    'h737fea8                                   
#   delay                        integral       6     'h0                                         
#   begin_time                   time           64    65                                          
#   end_time                     time           64    75                                          
#   depth                        int            32    'd2                                         
#   parent sequence (name)       string         6     sseq_h                                      
#   parent sequence (full name)  string         44    uvm_test_top.env_h.slv_agent_h.seqr_h.sseq_h
#   sequencer                    string         37    uvm_test_top.env_h.slv_agent_h.seqr_h       
# ------------------------------------------------------------------------------------------------
# ACCESS_STATE_WAIT PASS                  115
# UVM_INFO ..\ENV\Master/apb_mas_mon.sv(68) @ 125: uvm_test_top.env_h.mas_agent_h.mon_h [mon_h] psel = 1, penb = 1, pwrite = 0, pwdata = 00000000, paddr = 00000000, pready = 1, prdata = 00000000
# no_of_cycles                  125 5
# UVM_INFO ..\ENV\Master/apb_sb.sv(33) @ 125: uvm_test_top.env_h.sb_h [apb_sb] EXP DATA - WRITE MAS
# ------------------------------------------------------------------------------------------------
# Name                           Type           Size  Value                                       
# ------------------------------------------------------------------------------------------------
# trans_h                        apb_mas_trans  -     @926                                        
#   paddr                        integral       32    'h4                                         
#   pwrite                       integral       1     'h1                                         
#   prdata                       integral       32    'h0                                         
#   pwdata                       integral       32    'h737fea8                                   
#   delay                        integral       6     'h0                                         
#   begin_time                   time           64    65                                          
#   end_time                     time           64    75                                          
#   depth                        int            32    'd2                                         
#   parent sequence (name)       string         6     sseq_h                                      
#   parent sequence (full name)  string         44    uvm_test_top.env_h.slv_agent_h.seqr_h.sseq_h
#   sequencer                    string         37    uvm_test_top.env_h.slv_agent_h.seqr_h       
# ------------------------------------------------------------------------------------------------
# ACCESS_STATE_WAIT PASS                  125
# UVM_INFO ..\ENV\Master/apb_mas_mon.sv(68) @ 135: uvm_test_top.env_h.mas_agent_h.mon_h [mon_h] psel = 1, penb = 1, pwrite = 0, pwdata = 00000000, paddr = 00000000, pready = 1, prdata = 00000000
# no_of_cycles                  135 5
# no_of_cycles out of loop                  135 5
# pready 1                 135
# UVM_INFO ..\ENV\Master/apb_sb.sv(33) @ 135: uvm_test_top.env_h.sb_h [apb_sb] EXP DATA - WRITE MAS
# ------------------------------------------------------------------------------------------------
# Name                           Type           Size  Value                                       
# ------------------------------------------------------------------------------------------------
# trans_h                        apb_mas_trans  -     @926                                        
#   paddr                        integral       32    'h4                                         
#   pwrite                       integral       1     'h1                                         
#   prdata                       integral       32    'h0                                         
#   pwdata                       integral       32    'h737fea8                                   
#   delay                        integral       6     'h0                                         
#   begin_time                   time           64    65                                          
#   end_time                     time           64    75                                          
#   depth                        int            32    'd2                                         
#   parent sequence (name)       string         6     sseq_h                                      
#   parent sequence (full name)  string         44    uvm_test_top.env_h.slv_agent_h.seqr_h.sseq_h
#   sequencer                    string         37    uvm_test_top.env_h.slv_agent_h.seqr_h       
# ------------------------------------------------------------------------------------------------
# UVM_INFO ..\ENV\Slave/apb_slv_base_seqs.sv(31) @ 135: uvm_test_top.env_h.slv_agent_h.seqr_h@@sseq_h [sseq_h] before psel
# UVM_INFO ..\ENV\Slave/apb_slv_base_seqs.sv(46) @ 135: uvm_test_top.env_h.slv_agent_h.seqr_h@@sseq_h [sseq_h] **********************added to memory
# UVM_INFO ..\ENV\Slave/apb_slv_base_seqs.sv(48) @ 135: uvm_test_top.env_h.slv_agent_h.seqr_h@@sseq_h [sseq_h] [1]=0737fea8
# UVM_INFO ..\ENV\Slave/apb_slv_base_seqs.sv(48) @ 135: uvm_test_top.env_h.slv_agent_h.seqr_h@@sseq_h [sseq_h] [3]=79046b41
# ACCESS_STATE_WAIT PASS                  135
# ------------------------------------------------------------------------------------------------
# Name                           Type           Size  Value                                       
# ------------------------------------------------------------------------------------------------
# trans_h                        apb_mas_trans  -     @1034                                       
#   paddr                        integral       32    'h4                                         
#   pwrite                       integral       1     'h1                                         
#   prdata                       integral       32    'h0                                         
#   pwdata                       integral       32    'h737fea8                                   
#   delay                        integral       6     'h0                                         
#   begin_time                   time           64    75                                          
#   depth                        int            32    'd2                                         
#   parent sequence (name)       string         6     mseq_h                                      
#   parent sequence (full name)  string         44    uvm_test_top.env_h.mas_agent_h.seqr_h.mseq_h
#   sequencer                    string         37    uvm_test_top.env_h.mas_agent_h.seqr_h       
# ------------------------------------------------------------------------------------------------
# UVM_INFO ..\ENV\Master/apb_mas_mon.sv(68) @ 145: uvm_test_top.env_h.mas_agent_h.mon_h [mon_h] psel = 1, penb = 1, pwrite = 1, pwdata = 0737fea8, paddr = 00000004, pready = 1, prdata = 00000000
# UVM_INFO ..\ENV\Master/apb_sb.sv(33) @ 145: uvm_test_top.env_h.sb_h [apb_sb] EXP DATA - WRITE MAS
# ---------------------------------------------
# Name           Type           Size  Value    
# ---------------------------------------------
# apb_mas_trans  apb_mas_trans  -     @1063    
#   paddr        integral       32    'h4      
#   pwrite       integral       1     'h1      
#   prdata       integral       32    'h0      
#   pwdata       integral       32    'h737fea8
#   delay        integral       6     'h0      
# ---------------------------------------------
# UVM_INFO ..\ENV\Master/apb_sb.sv(33) @ 145: uvm_test_top.env_h.sb_h [apb_sb] EXP DATA - WRITE MAS
# ------------------------------------------------------------------------------------------------
# Name                           Type           Size  Value                                       
# ------------------------------------------------------------------------------------------------
# trans_h                        apb_mas_trans  -     @926                                        
#   paddr                        integral       32    'h4                                         
#   pwrite                       integral       1     'h1                                         
#   prdata                       integral       32    'h0                                         
#   pwdata                       integral       32    'h737fea8                                   
#   delay                        integral       6     'h0                                         
#   begin_time                   time           64    135                                         
#   end_time                     time           64    75                                          
#   depth                        int            32    'd2                                         
#   parent sequence (name)       string         6     sseq_h                                      
#   parent sequence (full name)  string         44    uvm_test_top.env_h.slv_agent_h.seqr_h.sseq_h
#   sequencer                    string         37    uvm_test_top.env_h.slv_agent_h.seqr_h       
# ------------------------------------------------------------------------------------------------
# ACCESS_STATE_WAIT PASS                  145
# UVM_INFO ..\ENV\Master/apb_mas_mon.sv(68) @ 155: uvm_test_top.env_h.mas_agent_h.mon_h [mon_h] psel = 1, penb = 1, pwrite = 0, pwdata = 00000000, paddr = 00000000, pready = 1, prdata = 00000000
# UVM_INFO ..\ENV\Master/apb_sb.sv(33) @ 155: uvm_test_top.env_h.sb_h [apb_sb] EXP DATA - WRITE MAS
# ------------------------------------------------------------------------------------------------
# Name                           Type           Size  Value                                       
# ------------------------------------------------------------------------------------------------
# trans_h                        apb_mas_trans  -     @926                                        
#   paddr                        integral       32    'h0                                         
#   pwrite                       integral       1     'h1                                         
#   prdata                       integral       32    'h0                                         
#   pwdata                       integral       32    'h688cdb8                                   
#   delay                        integral       6     'h0                                         
#   begin_time                   time           64    135                                         
#   end_time                     time           64    145                                         
#   depth                        int            32    'd2                                         
#   parent sequence (name)       string         6     sseq_h                                      
#   parent sequence (full name)  string         44    uvm_test_top.env_h.slv_agent_h.seqr_h.sseq_h
#   sequencer                    string         37    uvm_test_top.env_h.slv_agent_h.seqr_h       
# ------------------------------------------------------------------------------------------------
# PWDATA IS STABLE WHEN TRANSFER                  155
# PR_GENERIC_STABLE  PASS                  155
# PENABLE IS STABLE WHEN TRANSFER                  155
# ACCESS_STATE_LAST PASS                  155
# UVM_INFO ..\ENV\Master/apb_mas_mon.sv(68) @ 165: uvm_test_top.env_h.mas_agent_h.mon_h [mon_h] psel = 1, penb = 1, pwrite = 0, pwdata = 00000000, paddr = 00000000, pready = 1, prdata = 00000000
# no_of_cycles                  165 5
# UVM_INFO ..\ENV\Master/apb_sb.sv(33) @ 165: uvm_test_top.env_h.sb_h [apb_sb] EXP DATA - WRITE MAS
# ------------------------------------------------------------------------------------------------
# Name                           Type           Size  Value                                       
# ------------------------------------------------------------------------------------------------
# trans_h                        apb_mas_trans  -     @926                                        
#   paddr                        integral       32    'h0                                         
#   pwrite                       integral       1     'h1                                         
#   prdata                       integral       32    'h0                                         
#   pwdata                       integral       32    'h688cdb8                                   
#   delay                        integral       6     'h0                                         
#   begin_time                   time           64    135                                         
#   end_time                     time           64    145                                         
#   depth                        int            32    'd2                                         
#   parent sequence (name)       string         6     sseq_h                                      
#   parent sequence (full name)  string         44    uvm_test_top.env_h.slv_agent_h.seqr_h.sseq_h
#   sequencer                    string         37    uvm_test_top.env_h.slv_agent_h.seqr_h       
# ------------------------------------------------------------------------------------------------
# SETUP PASS                  165
# UVM_INFO ..\ENV\Master/apb_mas_mon.sv(68) @ 175: uvm_test_top.env_h.mas_agent_h.mon_h [mon_h] psel = 1, penb = 1, pwrite = 0, pwdata = 00000000, paddr = 00000000, pready = 1, prdata = 00000000
# no_of_cycles                  175 5
# UVM_INFO ..\ENV\Master/apb_sb.sv(33) @ 175: uvm_test_top.env_h.sb_h [apb_sb] EXP DATA - WRITE MAS
# ------------------------------------------------------------------------------------------------
# Name                           Type           Size  Value                                       
# ------------------------------------------------------------------------------------------------
# trans_h                        apb_mas_trans  -     @926                                        
#   paddr                        integral       32    'h0                                         
#   pwrite                       integral       1     'h1                                         
#   prdata                       integral       32    'h0                                         
#   pwdata                       integral       32    'h688cdb8                                   
#   delay                        integral       6     'h0                                         
#   begin_time                   time           64    135                                         
#   end_time                     time           64    145                                         
#   depth                        int            32    'd2                                         
#   parent sequence (name)       string         6     sseq_h                                      
#   parent sequence (full name)  string         44    uvm_test_top.env_h.slv_agent_h.seqr_h.sseq_h
#   sequencer                    string         37    uvm_test_top.env_h.slv_agent_h.seqr_h       
# ------------------------------------------------------------------------------------------------
# ACCESS_STATE_WAIT PASS                  175
# UVM_INFO ..\ENV\Master/apb_mas_mon.sv(68) @ 185: uvm_test_top.env_h.mas_agent_h.mon_h [mon_h] psel = 1, penb = 1, pwrite = 0, pwdata = 00000000, paddr = 00000000, pready = 1, prdata = 00000000
# no_of_cycles                  185 5
# UVM_INFO ..\ENV\Master/apb_sb.sv(33) @ 185: uvm_test_top.env_h.sb_h [apb_sb] EXP DATA - WRITE MAS
# ------------------------------------------------------------------------------------------------
# Name                           Type           Size  Value                                       
# ------------------------------------------------------------------------------------------------
# trans_h                        apb_mas_trans  -     @926                                        
#   paddr                        integral       32    'h0                                         
#   pwrite                       integral       1     'h1                                         
#   prdata                       integral       32    'h0                                         
#   pwdata                       integral       32    'h688cdb8                                   
#   delay                        integral       6     'h0                                         
#   begin_time                   time           64    135                                         
#   end_time                     time           64    145                                         
#   depth                        int            32    'd2                                         
#   parent sequence (name)       string         6     sseq_h                                      
#   parent sequence (full name)  string         44    uvm_test_top.env_h.slv_agent_h.seqr_h.sseq_h
#   sequencer                    string         37    uvm_test_top.env_h.slv_agent_h.seqr_h       
# ------------------------------------------------------------------------------------------------
# ACCESS_STATE_WAIT PASS                  185
# UVM_INFO ..\ENV\Master/apb_mas_mon.sv(68) @ 195: uvm_test_top.env_h.mas_agent_h.mon_h [mon_h] psel = 1, penb = 1, pwrite = 0, pwdata = 00000000, paddr = 00000000, pready = 1, prdata = 00000000
# no_of_cycles                  195 5
# UVM_INFO ..\ENV\Master/apb_sb.sv(33) @ 195: uvm_test_top.env_h.sb_h [apb_sb] EXP DATA - WRITE MAS
# ------------------------------------------------------------------------------------------------
# Name                           Type           Size  Value                                       
# ------------------------------------------------------------------------------------------------
# trans_h                        apb_mas_trans  -     @926                                        
#   paddr                        integral       32    'h0                                         
#   pwrite                       integral       1     'h1                                         
#   prdata                       integral       32    'h0                                         
#   pwdata                       integral       32    'h688cdb8                                   
#   delay                        integral       6     'h0                                         
#   begin_time                   time           64    135                                         
#   end_time                     time           64    145                                         
#   depth                        int            32    'd2                                         
#   parent sequence (name)       string         6     sseq_h                                      
#   parent sequence (full name)  string         44    uvm_test_top.env_h.slv_agent_h.seqr_h.sseq_h
#   sequencer                    string         37    uvm_test_top.env_h.slv_agent_h.seqr_h       
# ------------------------------------------------------------------------------------------------
# ACCESS_STATE_WAIT PASS                  195
# UVM_INFO ..\ENV\Master/apb_mas_mon.sv(68) @ 205: uvm_test_top.env_h.mas_agent_h.mon_h [mon_h] psel = 1, penb = 1, pwrite = 0, pwdata = 00000000, paddr = 00000000, pready = 1, prdata = 00000000
# no_of_cycles                  205 5
# no_of_cycles out of loop                  205 5
# pready 1                 205
# UVM_INFO ..\ENV\Master/apb_sb.sv(33) @ 205: uvm_test_top.env_h.sb_h [apb_sb] EXP DATA - WRITE MAS
# ------------------------------------------------------------------------------------------------
# Name                           Type           Size  Value                                       
# ------------------------------------------------------------------------------------------------
# trans_h                        apb_mas_trans  -     @926                                        
#   paddr                        integral       32    'h0                                         
#   pwrite                       integral       1     'h1                                         
#   prdata                       integral       32    'h0                                         
#   pwdata                       integral       32    'h688cdb8                                   
#   delay                        integral       6     'h0                                         
#   begin_time                   time           64    135                                         
#   end_time                     time           64    145                                         
#   depth                        int            32    'd2                                         
#   parent sequence (name)       string         6     sseq_h                                      
#   parent sequence (full name)  string         44    uvm_test_top.env_h.slv_agent_h.seqr_h.sseq_h
#   sequencer                    string         37    uvm_test_top.env_h.slv_agent_h.seqr_h       
# ------------------------------------------------------------------------------------------------
# UVM_INFO ..\ENV\Slave/apb_slv_base_seqs.sv(31) @ 205: uvm_test_top.env_h.slv_agent_h.seqr_h@@sseq_h [sseq_h] before psel
# UVM_INFO ..\ENV\Slave/apb_slv_base_seqs.sv(46) @ 205: uvm_test_top.env_h.slv_agent_h.seqr_h@@sseq_h [sseq_h] **********************added to memory
# UVM_INFO ..\ENV\Slave/apb_slv_base_seqs.sv(48) @ 205: uvm_test_top.env_h.slv_agent_h.seqr_h@@sseq_h [sseq_h] [0]=0688cdb8
# UVM_INFO ..\ENV\Slave/apb_slv_base_seqs.sv(48) @ 205: uvm_test_top.env_h.slv_agent_h.seqr_h@@sseq_h [sseq_h] [1]=0737fea8
# UVM_INFO ..\ENV\Slave/apb_slv_base_seqs.sv(48) @ 205: uvm_test_top.env_h.slv_agent_h.seqr_h@@sseq_h [sseq_h] [3]=79046b41
# ACCESS_STATE_WAIT PASS                  205
# ------------------------------------------------------------------------------------------------
# Name                           Type           Size  Value                                       
# ------------------------------------------------------------------------------------------------
# trans_h                        apb_mas_trans  -     @1067                                       
#   paddr                        integral       32    'h0                                         
#   pwrite                       integral       1     'h1                                         
#   prdata                       integral       32    'h0                                         
#   pwdata                       integral       32    'h688cdb8                                   
#   delay                        integral       6     'h0                                         
#   begin_time                   time           64    145                                         
#   depth                        int            32    'd2                                         
#   parent sequence (name)       string         6     mseq_h                                      
#   parent sequence (full name)  string         44    uvm_test_top.env_h.mas_agent_h.seqr_h.mseq_h
#   sequencer                    string         37    uvm_test_top.env_h.mas_agent_h.seqr_h       
# ------------------------------------------------------------------------------------------------
# UVM_INFO ..\ENV\Master/apb_mas_mon.sv(68) @ 215: uvm_test_top.env_h.mas_agent_h.mon_h [mon_h] psel = 1, penb = 1, pwrite = 1, pwdata = 0688cdb8, paddr = 00000000, pready = 1, prdata = 00000000
# UVM_INFO ..\ENV\Master/apb_sb.sv(33) @ 215: uvm_test_top.env_h.sb_h [apb_sb] EXP DATA - WRITE MAS
# ---------------------------------------------
# Name           Type           Size  Value    
# ---------------------------------------------
# apb_mas_trans  apb_mas_trans  -     @1095    
#   paddr        integral       32    'h0      
#   pwrite       integral       1     'h1      
#   prdata       integral       32    'h0      
#   pwdata       integral       32    'h688cdb8
#   delay        integral       6     'h0      
# ---------------------------------------------
# UVM_INFO ..\ENV\Master/apb_sb.sv(33) @ 215: uvm_test_top.env_h.sb_h [apb_sb] EXP DATA - WRITE MAS
# ------------------------------------------------------------------------------------------------
# Name                           Type           Size  Value                                       
# ------------------------------------------------------------------------------------------------
# trans_h                        apb_mas_trans  -     @926                                        
#   paddr                        integral       32    'h0                                         
#   pwrite                       integral       1     'h1                                         
#   prdata                       integral       32    'h0                                         
#   pwdata                       integral       32    'h688cdb8                                   
#   delay                        integral       6     'h0                                         
#   begin_time                   time           64    205                                         
#   end_time                     time           64    145                                         
#   depth                        int            32    'd2                                         
#   parent sequence (name)       string         6     sseq_h                                      
#   parent sequence (full name)  string         44    uvm_test_top.env_h.slv_agent_h.seqr_h.sseq_h
#   sequencer                    string         37    uvm_test_top.env_h.slv_agent_h.seqr_h       
# ------------------------------------------------------------------------------------------------
# ACCESS_STATE_WAIT PASS                  215
# UVM_INFO ..\ENV\Master/apb_mas_mon.sv(68) @ 225: uvm_test_top.env_h.mas_agent_h.mon_h [mon_h] psel = 1, penb = 1, pwrite = 0, pwdata = 00000000, paddr = 00000000, pready = 1, prdata = 00000000
# UVM_INFO ..\ENV\Master/apb_sb.sv(33) @ 225: uvm_test_top.env_h.sb_h [apb_sb] EXP DATA - WRITE MAS
# ------------------------------------------------------------------------------------------------
# Name                           Type           Size  Value                                       
# ------------------------------------------------------------------------------------------------
# trans_h                        apb_mas_trans  -     @926                                        
#   paddr                        integral       32    'hc                                         
#   pwrite                       integral       1     'h1                                         
#   prdata                       integral       32    'h0                                         
#   pwdata                       integral       32    'h78522f58                                  
#   delay                        integral       6     'h0                                         
#   begin_time                   time           64    205                                         
#   end_time                     time           64    215                                         
#   depth                        int            32    'd2                                         
#   parent sequence (name)       string         6     sseq_h                                      
#   parent sequence (full name)  string         44    uvm_test_top.env_h.slv_agent_h.seqr_h.sseq_h
#   sequencer                    string         37    uvm_test_top.env_h.slv_agent_h.seqr_h       
# ------------------------------------------------------------------------------------------------
# PWDATA IS STABLE WHEN TRANSFER                  225
# PR_GENERIC_STABLE  PASS                  225
# PENABLE IS STABLE WHEN TRANSFER                  225
# ACCESS_STATE_LAST PASS                  225
# UVM_INFO ..\ENV\Master/apb_mas_mon.sv(68) @ 235: uvm_test_top.env_h.mas_agent_h.mon_h [mon_h] psel = 1, penb = 1, pwrite = 0, pwdata = 00000000, paddr = 00000000, pready = 1, prdata = 00000000
# no_of_cycles                  235 5
# UVM_INFO ..\ENV\Master/apb_sb.sv(33) @ 235: uvm_test_top.env_h.sb_h [apb_sb] EXP DATA - WRITE MAS
# ------------------------------------------------------------------------------------------------
# Name                           Type           Size  Value                                       
# ------------------------------------------------------------------------------------------------
# trans_h                        apb_mas_trans  -     @926                                        
#   paddr                        integral       32    'hc                                         
#   pwrite                       integral       1     'h1                                         
#   prdata                       integral       32    'h0                                         
#   pwdata                       integral       32    'h78522f58                                  
#   delay                        integral       6     'h0                                         
#   begin_time                   time           64    205                                         
#   end_time                     time           64    215                                         
#   depth                        int            32    'd2                                         
#   parent sequence (name)       string         6     sseq_h                                      
#   parent sequence (full name)  string         44    uvm_test_top.env_h.slv_agent_h.seqr_h.sseq_h
#   sequencer                    string         37    uvm_test_top.env_h.slv_agent_h.seqr_h       
# ------------------------------------------------------------------------------------------------
# SETUP PASS                  235
# UVM_INFO ..\ENV\Master/apb_mas_mon.sv(68) @ 245: uvm_test_top.env_h.mas_agent_h.mon_h [mon_h] psel = 1, penb = 1, pwrite = 0, pwdata = 00000000, paddr = 00000000, pready = 1, prdata = 00000000
# no_of_cycles                  245 5
# UVM_INFO ..\ENV\Master/apb_sb.sv(33) @ 245: uvm_test_top.env_h.sb_h [apb_sb] EXP DATA - WRITE MAS
# ------------------------------------------------------------------------------------------------
# Name                           Type           Size  Value                                       
# ------------------------------------------------------------------------------------------------
# trans_h                        apb_mas_trans  -     @926                                        
#   paddr                        integral       32    'hc                                         
#   pwrite                       integral       1     'h1                                         
#   prdata                       integral       32    'h0                                         
#   pwdata                       integral       32    'h78522f58                                  
#   delay                        integral       6     'h0                                         
#   begin_time                   time           64    205                                         
#   end_time                     time           64    215                                         
#   depth                        int            32    'd2                                         
#   parent sequence (name)       string         6     sseq_h                                      
#   parent sequence (full name)  string         44    uvm_test_top.env_h.slv_agent_h.seqr_h.sseq_h
#   sequencer                    string         37    uvm_test_top.env_h.slv_agent_h.seqr_h       
# ------------------------------------------------------------------------------------------------
# ACCESS_STATE_WAIT PASS                  245
# UVM_INFO ..\ENV\Master/apb_mas_mon.sv(68) @ 255: uvm_test_top.env_h.mas_agent_h.mon_h [mon_h] psel = 1, penb = 1, pwrite = 0, pwdata = 00000000, paddr = 00000000, pready = 1, prdata = 00000000
# no_of_cycles                  255 5
# UVM_INFO ..\ENV\Master/apb_sb.sv(33) @ 255: uvm_test_top.env_h.sb_h [apb_sb] EXP DATA - WRITE MAS
# ------------------------------------------------------------------------------------------------
# Name                           Type           Size  Value                                       
# ------------------------------------------------------------------------------------------------
# trans_h                        apb_mas_trans  -     @926                                        
#   paddr                        integral       32    'hc                                         
#   pwrite                       integral       1     'h1                                         
#   prdata                       integral       32    'h0                                         
#   pwdata                       integral       32    'h78522f58                                  
#   delay                        integral       6     'h0                                         
#   begin_time                   time           64    205                                         
#   end_time                     time           64    215                                         
#   depth                        int            32    'd2                                         
#   parent sequence (name)       string         6     sseq_h                                      
#   parent sequence (full name)  string         44    uvm_test_top.env_h.slv_agent_h.seqr_h.sseq_h
#   sequencer                    string         37    uvm_test_top.env_h.slv_agent_h.seqr_h       
# ------------------------------------------------------------------------------------------------
# ACCESS_STATE_WAIT PASS                  255
# UVM_INFO ..\ENV\Master/apb_mas_mon.sv(68) @ 265: uvm_test_top.env_h.mas_agent_h.mon_h [mon_h] psel = 1, penb = 1, pwrite = 0, pwdata = 00000000, paddr = 00000000, pready = 1, prdata = 00000000
# no_of_cycles                  265 5
# UVM_INFO ..\ENV\Master/apb_sb.sv(33) @ 265: uvm_test_top.env_h.sb_h [apb_sb] EXP DATA - WRITE MAS
# ------------------------------------------------------------------------------------------------
# Name                           Type           Size  Value                                       
# ------------------------------------------------------------------------------------------------
# trans_h                        apb_mas_trans  -     @926                                        
#   paddr                        integral       32    'hc                                         
#   pwrite                       integral       1     'h1                                         
#   prdata                       integral       32    'h0                                         
#   pwdata                       integral       32    'h78522f58                                  
#   delay                        integral       6     'h0                                         
#   begin_time                   time           64    205                                         
#   end_time                     time           64    215                                         
#   depth                        int            32    'd2                                         
#   parent sequence (name)       string         6     sseq_h                                      
#   parent sequence (full name)  string         44    uvm_test_top.env_h.slv_agent_h.seqr_h.sseq_h
#   sequencer                    string         37    uvm_test_top.env_h.slv_agent_h.seqr_h       
# ------------------------------------------------------------------------------------------------
# ACCESS_STATE_WAIT PASS                  265
# UVM_INFO ..\ENV\Master/apb_mas_mon.sv(68) @ 275: uvm_test_top.env_h.mas_agent_h.mon_h [mon_h] psel = 1, penb = 1, pwrite = 0, pwdata = 00000000, paddr = 00000000, pready = 1, prdata = 00000000
# no_of_cycles                  275 5
# no_of_cycles out of loop                  275 5
# pready 1                 275
# UVM_INFO ..\ENV\Master/apb_sb.sv(33) @ 275: uvm_test_top.env_h.sb_h [apb_sb] EXP DATA - WRITE MAS
# ------------------------------------------------------------------------------------------------
# Name                           Type           Size  Value                                       
# ------------------------------------------------------------------------------------------------
# trans_h                        apb_mas_trans  -     @926                                        
#   paddr                        integral       32    'hc                                         
#   pwrite                       integral       1     'h1                                         
#   prdata                       integral       32    'h0                                         
#   pwdata                       integral       32    'h78522f58                                  
#   delay                        integral       6     'h0                                         
#   begin_time                   time           64    205                                         
#   end_time                     time           64    215                                         
#   depth                        int            32    'd2                                         
#   parent sequence (name)       string         6     sseq_h                                      
#   parent sequence (full name)  string         44    uvm_test_top.env_h.slv_agent_h.seqr_h.sseq_h
#   sequencer                    string         37    uvm_test_top.env_h.slv_agent_h.seqr_h       
# ------------------------------------------------------------------------------------------------
# UVM_INFO ..\ENV\Slave/apb_slv_base_seqs.sv(31) @ 275: uvm_test_top.env_h.slv_agent_h.seqr_h@@sseq_h [sseq_h] before psel
# UVM_INFO ..\ENV\Slave/apb_slv_base_seqs.sv(46) @ 275: uvm_test_top.env_h.slv_agent_h.seqr_h@@sseq_h [sseq_h] **********************added to memory
# UVM_INFO ..\ENV\Slave/apb_slv_base_seqs.sv(48) @ 275: uvm_test_top.env_h.slv_agent_h.seqr_h@@sseq_h [sseq_h] [0]=0688cdb8
# UVM_INFO ..\ENV\Slave/apb_slv_base_seqs.sv(48) @ 275: uvm_test_top.env_h.slv_agent_h.seqr_h@@sseq_h [sseq_h] [1]=0737fea8
# UVM_INFO ..\ENV\Slave/apb_slv_base_seqs.sv(48) @ 275: uvm_test_top.env_h.slv_agent_h.seqr_h@@sseq_h [sseq_h] [3]=78522f58
# ACCESS_STATE_WAIT PASS                  275
# ------------------------------------------------------------------------------------------------
# Name                           Type           Size  Value                                       
# ------------------------------------------------------------------------------------------------
# trans_h                        apb_mas_trans  -     @1099                                       
#   paddr                        integral       32    'hc                                         
#   pwrite                       integral       1     'h1                                         
#   prdata                       integral       32    'h0                                         
#   pwdata                       integral       32    'h78522f58                                  
#   delay                        integral       6     'h0                                         
#   begin_time                   time           64    215                                         
#   depth                        int            32    'd2                                         
#   parent sequence (name)       string         6     mseq_h                                      
#   parent sequence (full name)  string         44    uvm_test_top.env_h.mas_agent_h.seqr_h.mseq_h
#   sequencer                    string         37    uvm_test_top.env_h.mas_agent_h.seqr_h       
# ------------------------------------------------------------------------------------------------
# UVM_INFO ..\ENV\Master/apb_mas_mon.sv(68) @ 285: uvm_test_top.env_h.mas_agent_h.mon_h [mon_h] psel = 1, penb = 1, pwrite = 1, pwdata = 78522f58, paddr = 0000000c, pready = 1, prdata = 00000000
# UVM_INFO ..\ENV\Master/apb_sb.sv(33) @ 285: uvm_test_top.env_h.sb_h [apb_sb] EXP DATA - WRITE MAS
# ----------------------------------------------
# Name           Type           Size  Value     
# ----------------------------------------------
# apb_mas_trans  apb_mas_trans  -     @1127     
#   paddr        integral       32    'hc       
#   pwrite       integral       1     'h1       
#   prdata       integral       32    'h0       
#   pwdata       integral       32    'h78522f58
#   delay        integral       6     'h0       
# ----------------------------------------------
# UVM_INFO ..\ENV\Master/apb_sb.sv(33) @ 285: uvm_test_top.env_h.sb_h [apb_sb] EXP DATA - WRITE MAS
# ------------------------------------------------------------------------------------------------
# Name                           Type           Size  Value                                       
# ------------------------------------------------------------------------------------------------
# trans_h                        apb_mas_trans  -     @926                                        
#   paddr                        integral       32    'hc                                         
#   pwrite                       integral       1     'h1                                         
#   prdata                       integral       32    'h0                                         
#   pwdata                       integral       32    'h78522f58                                  
#   delay                        integral       6     'h0                                         
#   begin_time                   time           64    275                                         
#   end_time                     time           64    215                                         
#   depth                        int            32    'd2                                         
#   parent sequence (name)       string         6     sseq_h                                      
#   parent sequence (full name)  string         44    uvm_test_top.env_h.slv_agent_h.seqr_h.sseq_h
#   sequencer                    string         37    uvm_test_top.env_h.slv_agent_h.seqr_h       
# ------------------------------------------------------------------------------------------------
# ACCESS_STATE_WAIT PASS                  285
# UVM_INFO ..\ENV\Master/apb_mas_mon.sv(68) @ 295: uvm_test_top.env_h.mas_agent_h.mon_h [mon_h] psel = 1, penb = 1, pwrite = 0, pwdata = 00000000, paddr = 00000000, pready = 1, prdata = 00000000
# UVM_INFO ..\ENV\Master/apb_sb.sv(33) @ 295: uvm_test_top.env_h.sb_h [apb_sb] EXP DATA - WRITE MAS
# ------------------------------------------------------------------------------------------------
# Name                           Type           Size  Value                                       
# ------------------------------------------------------------------------------------------------
# trans_h                        apb_mas_trans  -     @926                                        
#   paddr                        integral       32    'h10                                        
#   pwrite                       integral       1     'h1                                         
#   prdata                       integral       32    'h0                                         
#   pwdata                       integral       32    'h6c94dcd4                                  
#   delay                        integral       6     'h0                                         
#   begin_time                   time           64    275                                         
#   end_time                     time           64    285                                         
#   depth                        int            32    'd2                                         
#   parent sequence (name)       string         6     sseq_h                                      
#   parent sequence (full name)  string         44    uvm_test_top.env_h.slv_agent_h.seqr_h.sseq_h
#   sequencer                    string         37    uvm_test_top.env_h.slv_agent_h.seqr_h       
# ------------------------------------------------------------------------------------------------
# PWDATA IS STABLE WHEN TRANSFER                  295
# PR_GENERIC_STABLE  PASS                  295
# PENABLE IS STABLE WHEN TRANSFER                  295
# ACCESS_STATE_LAST PASS                  295
# UVM_INFO ..\ENV\Master/apb_mas_mon.sv(68) @ 305: uvm_test_top.env_h.mas_agent_h.mon_h [mon_h] psel = 1, penb = 1, pwrite = 0, pwdata = 00000000, paddr = 00000000, pready = 1, prdata = 00000000
# no_of_cycles                  305 5
# UVM_INFO ..\ENV\Master/apb_sb.sv(33) @ 305: uvm_test_top.env_h.sb_h [apb_sb] EXP DATA - WRITE MAS
# ------------------------------------------------------------------------------------------------
# Name                           Type           Size  Value                                       
# ------------------------------------------------------------------------------------------------
# trans_h                        apb_mas_trans  -     @926                                        
#   paddr                        integral       32    'h10                                        
#   pwrite                       integral       1     'h1                                         
#   prdata                       integral       32    'h0                                         
#   pwdata                       integral       32    'h6c94dcd4                                  
#   delay                        integral       6     'h0                                         
#   begin_time                   time           64    275                                         
#   end_time                     time           64    285                                         
#   depth                        int            32    'd2                                         
#   parent sequence (name)       string         6     sseq_h                                      
#   parent sequence (full name)  string         44    uvm_test_top.env_h.slv_agent_h.seqr_h.sseq_h
#   sequencer                    string         37    uvm_test_top.env_h.slv_agent_h.seqr_h       
# ------------------------------------------------------------------------------------------------
# SETUP PASS                  305
# UVM_INFO ..\ENV\Master/apb_mas_mon.sv(68) @ 315: uvm_test_top.env_h.mas_agent_h.mon_h [mon_h] psel = 1, penb = 1, pwrite = 0, pwdata = 00000000, paddr = 00000000, pready = 1, prdata = 00000000
# no_of_cycles                  315 5
# UVM_INFO ..\ENV\Master/apb_sb.sv(33) @ 315: uvm_test_top.env_h.sb_h [apb_sb] EXP DATA - WRITE MAS
# ------------------------------------------------------------------------------------------------
# Name                           Type           Size  Value                                       
# ------------------------------------------------------------------------------------------------
# trans_h                        apb_mas_trans  -     @926                                        
#   paddr                        integral       32    'h10                                        
#   pwrite                       integral       1     'h1                                         
#   prdata                       integral       32    'h0                                         
#   pwdata                       integral       32    'h6c94dcd4                                  
#   delay                        integral       6     'h0                                         
#   begin_time                   time           64    275                                         
#   end_time                     time           64    285                                         
#   depth                        int            32    'd2                                         
#   parent sequence (name)       string         6     sseq_h                                      
#   parent sequence (full name)  string         44    uvm_test_top.env_h.slv_agent_h.seqr_h.sseq_h
#   sequencer                    string         37    uvm_test_top.env_h.slv_agent_h.seqr_h       
# ------------------------------------------------------------------------------------------------
# ACCESS_STATE_WAIT PASS                  315
# UVM_INFO ..\ENV\Master/apb_mas_mon.sv(68) @ 325: uvm_test_top.env_h.mas_agent_h.mon_h [mon_h] psel = 1, penb = 1, pwrite = 0, pwdata = 00000000, paddr = 00000000, pready = 1, prdata = 00000000
# no_of_cycles                  325 5
# UVM_INFO ..\ENV\Master/apb_sb.sv(33) @ 325: uvm_test_top.env_h.sb_h [apb_sb] EXP DATA - WRITE MAS
# ------------------------------------------------------------------------------------------------
# Name                           Type           Size  Value                                       
# ------------------------------------------------------------------------------------------------
# trans_h                        apb_mas_trans  -     @926                                        
#   paddr                        integral       32    'h10                                        
#   pwrite                       integral       1     'h1                                         
#   prdata                       integral       32    'h0                                         
#   pwdata                       integral       32    'h6c94dcd4                                  
#   delay                        integral       6     'h0                                         
#   begin_time                   time           64    275                                         
#   end_time                     time           64    285                                         
#   depth                        int            32    'd2                                         
#   parent sequence (name)       string         6     sseq_h                                      
#   parent sequence (full name)  string         44    uvm_test_top.env_h.slv_agent_h.seqr_h.sseq_h
#   sequencer                    string         37    uvm_test_top.env_h.slv_agent_h.seqr_h       
# ------------------------------------------------------------------------------------------------
# ACCESS_STATE_WAIT PASS                  325
# UVM_INFO ..\ENV\Master/apb_mas_mon.sv(68) @ 335: uvm_test_top.env_h.mas_agent_h.mon_h [mon_h] psel = 1, penb = 1, pwrite = 0, pwdata = 00000000, paddr = 00000000, pready = 1, prdata = 00000000
# no_of_cycles                  335 5
# UVM_INFO ..\ENV\Master/apb_sb.sv(33) @ 335: uvm_test_top.env_h.sb_h [apb_sb] EXP DATA - WRITE MAS
# ------------------------------------------------------------------------------------------------
# Name                           Type           Size  Value                                       
# ------------------------------------------------------------------------------------------------
# trans_h                        apb_mas_trans  -     @926                                        
#   paddr                        integral       32    'h10                                        
#   pwrite                       integral       1     'h1                                         
#   prdata                       integral       32    'h0                                         
#   pwdata                       integral       32    'h6c94dcd4                                  
#   delay                        integral       6     'h0                                         
#   begin_time                   time           64    275                                         
#   end_time                     time           64    285                                         
#   depth                        int            32    'd2                                         
#   parent sequence (name)       string         6     sseq_h                                      
#   parent sequence (full name)  string         44    uvm_test_top.env_h.slv_agent_h.seqr_h.sseq_h
#   sequencer                    string         37    uvm_test_top.env_h.slv_agent_h.seqr_h       
# ------------------------------------------------------------------------------------------------
# ACCESS_STATE_WAIT PASS                  335
# UVM_INFO ..\ENV\Master/apb_mas_mon.sv(68) @ 345: uvm_test_top.env_h.mas_agent_h.mon_h [mon_h] psel = 1, penb = 1, pwrite = 0, pwdata = 00000000, paddr = 00000000, pready = 1, prdata = 00000000
# no_of_cycles                  345 5
# no_of_cycles out of loop                  345 5
# pready 1                 345
# UVM_INFO ..\ENV\Master/apb_sb.sv(33) @ 345: uvm_test_top.env_h.sb_h [apb_sb] EXP DATA - WRITE MAS
# ------------------------------------------------------------------------------------------------
# Name                           Type           Size  Value                                       
# ------------------------------------------------------------------------------------------------
# trans_h                        apb_mas_trans  -     @926                                        
#   paddr                        integral       32    'h10                                        
#   pwrite                       integral       1     'h1                                         
#   prdata                       integral       32    'h0                                         
#   pwdata                       integral       32    'h6c94dcd4                                  
#   delay                        integral       6     'h0                                         
#   begin_time                   time           64    275                                         
#   end_time                     time           64    285                                         
#   depth                        int            32    'd2                                         
#   parent sequence (name)       string         6     sseq_h                                      
#   parent sequence (full name)  string         44    uvm_test_top.env_h.slv_agent_h.seqr_h.sseq_h
#   sequencer                    string         37    uvm_test_top.env_h.slv_agent_h.seqr_h       
# ------------------------------------------------------------------------------------------------
# UVM_INFO ..\ENV\Slave/apb_slv_base_seqs.sv(31) @ 345: uvm_test_top.env_h.slv_agent_h.seqr_h@@sseq_h [sseq_h] before psel
# UVM_INFO ..\ENV\Slave/apb_slv_base_seqs.sv(46) @ 345: uvm_test_top.env_h.slv_agent_h.seqr_h@@sseq_h [sseq_h] **********************added to memory
# UVM_INFO ..\ENV\Slave/apb_slv_base_seqs.sv(48) @ 345: uvm_test_top.env_h.slv_agent_h.seqr_h@@sseq_h [sseq_h] [0]=0688cdb8
# UVM_INFO ..\ENV\Slave/apb_slv_base_seqs.sv(48) @ 345: uvm_test_top.env_h.slv_agent_h.seqr_h@@sseq_h [sseq_h] [1]=0737fea8
# UVM_INFO ..\ENV\Slave/apb_slv_base_seqs.sv(48) @ 345: uvm_test_top.env_h.slv_agent_h.seqr_h@@sseq_h [sseq_h] [3]=78522f58
# UVM_INFO ..\ENV\Slave/apb_slv_base_seqs.sv(48) @ 345: uvm_test_top.env_h.slv_agent_h.seqr_h@@sseq_h [sseq_h] [4]=6c94dcd4
# ACCESS_STATE_WAIT PASS                  345
# ------------------------------------------------------------------------------------------------
# Name                           Type           Size  Value                                       
# ------------------------------------------------------------------------------------------------
# trans_h                        apb_mas_trans  -     @1131                                       
#   paddr                        integral       32    'h10                                        
#   pwrite                       integral       1     'h1                                         
#   prdata                       integral       32    'h0                                         
#   pwdata                       integral       32    'h6c94dcd4                                  
#   delay                        integral       6     'h0                                         
#   begin_time                   time           64    285                                         
#   depth                        int            32    'd2                                         
#   parent sequence (name)       string         6     mseq_h                                      
#   parent sequence (full name)  string         44    uvm_test_top.env_h.mas_agent_h.seqr_h.mseq_h
#   sequencer                    string         37    uvm_test_top.env_h.mas_agent_h.seqr_h       
# ------------------------------------------------------------------------------------------------
# UVM_INFO ..\ENV\Master/apb_mas_mon.sv(68) @ 355: uvm_test_top.env_h.mas_agent_h.mon_h [mon_h] psel = 1, penb = 1, pwrite = 1, pwdata = 6c94dcd4, paddr = 00000010, pready = 1, prdata = 00000000
# UVM_INFO ..\ENV\Master/apb_sb.sv(33) @ 355: uvm_test_top.env_h.sb_h [apb_sb] EXP DATA - WRITE MAS
# ----------------------------------------------
# Name           Type           Size  Value     
# ----------------------------------------------
# apb_mas_trans  apb_mas_trans  -     @1159     
#   paddr        integral       32    'h10      
#   pwrite       integral       1     'h1       
#   prdata       integral       32    'h0       
#   pwdata       integral       32    'h6c94dcd4
#   delay        integral       6     'h0       
# ----------------------------------------------
# UVM_INFO ..\ENV\Master/apb_sb.sv(33) @ 355: uvm_test_top.env_h.sb_h [apb_sb] EXP DATA - WRITE MAS
# ------------------------------------------------------------------------------------------------
# Name                           Type           Size  Value                                       
# ------------------------------------------------------------------------------------------------
# trans_h                        apb_mas_trans  -     @926                                        
#   paddr                        integral       32    'h10                                        
#   pwrite                       integral       1     'h1                                         
#   prdata                       integral       32    'h0                                         
#   pwdata                       integral       32    'h6c94dcd4                                  
#   delay                        integral       6     'h0                                         
#   begin_time                   time           64    345                                         
#   end_time                     time           64    285                                         
#   depth                        int            32    'd2                                         
#   parent sequence (name)       string         6     sseq_h                                      
#   parent sequence (full name)  string         44    uvm_test_top.env_h.slv_agent_h.seqr_h.sseq_h
#   sequencer                    string         37    uvm_test_top.env_h.slv_agent_h.seqr_h       
# ------------------------------------------------------------------------------------------------
# ACCESS_STATE_WAIT PASS                  355
# UVM_INFO ..\ENV\Master/apb_mas_mon.sv(68) @ 365: uvm_test_top.env_h.mas_agent_h.mon_h [mon_h] psel = 1, penb = 1, pwrite = 0, pwdata = 00000000, paddr = 00000000, pready = 1, prdata = 00000000
# UVM_INFO ..\ENV\Master/apb_sb.sv(33) @ 365: uvm_test_top.env_h.sb_h [apb_sb] EXP DATA - WRITE MAS
# ------------------------------------------------------------------------------------------------
# Name                           Type           Size  Value                                       
# ------------------------------------------------------------------------------------------------
# trans_h                        apb_mas_trans  -     @926                                        
#   paddr                        integral       32    'h4                                         
#   pwrite                       integral       1     'h1                                         
#   prdata                       integral       32    'h0                                         
#   pwdata                       integral       32    'h6573b495                                  
#   delay                        integral       6     'h0                                         
#   begin_time                   time           64    345                                         
#   end_time                     time           64    355                                         
#   depth                        int            32    'd2                                         
#   parent sequence (name)       string         6     sseq_h                                      
#   parent sequence (full name)  string         44    uvm_test_top.env_h.slv_agent_h.seqr_h.sseq_h
#   sequencer                    string         37    uvm_test_top.env_h.slv_agent_h.seqr_h       
# ------------------------------------------------------------------------------------------------
# PWDATA IS STABLE WHEN TRANSFER                  365
# PR_GENERIC_STABLE  PASS                  365
# PENABLE IS STABLE WHEN TRANSFER                  365
# ACCESS_STATE_LAST PASS                  365
# UVM_INFO ..\ENV\Master/apb_mas_mon.sv(68) @ 375: uvm_test_top.env_h.mas_agent_h.mon_h [mon_h] psel = 1, penb = 1, pwrite = 0, pwdata = 00000000, paddr = 00000000, pready = 1, prdata = 00000000
# no_of_cycles                  375 5
# UVM_INFO ..\ENV\Master/apb_sb.sv(33) @ 375: uvm_test_top.env_h.sb_h [apb_sb] EXP DATA - WRITE MAS
# ------------------------------------------------------------------------------------------------
# Name                           Type           Size  Value                                       
# ------------------------------------------------------------------------------------------------
# trans_h                        apb_mas_trans  -     @926                                        
#   paddr                        integral       32    'h4                                         
#   pwrite                       integral       1     'h1                                         
#   prdata                       integral       32    'h0                                         
#   pwdata                       integral       32    'h6573b495                                  
#   delay                        integral       6     'h0                                         
#   begin_time                   time           64    345                                         
#   end_time                     time           64    355                                         
#   depth                        int            32    'd2                                         
#   parent sequence (name)       string         6     sseq_h                                      
#   parent sequence (full name)  string         44    uvm_test_top.env_h.slv_agent_h.seqr_h.sseq_h
#   sequencer                    string         37    uvm_test_top.env_h.slv_agent_h.seqr_h       
# ------------------------------------------------------------------------------------------------
# SETUP PASS                  375
# UVM_INFO ..\ENV\Master/apb_mas_mon.sv(68) @ 385: uvm_test_top.env_h.mas_agent_h.mon_h [mon_h] psel = 1, penb = 1, pwrite = 0, pwdata = 00000000, paddr = 00000000, pready = 1, prdata = 00000000
# no_of_cycles                  385 5
# UVM_INFO ..\ENV\Master/apb_sb.sv(33) @ 385: uvm_test_top.env_h.sb_h [apb_sb] EXP DATA - WRITE MAS
# ------------------------------------------------------------------------------------------------
# Name                           Type           Size  Value                                       
# ------------------------------------------------------------------------------------------------
# trans_h                        apb_mas_trans  -     @926                                        
#   paddr                        integral       32    'h4                                         
#   pwrite                       integral       1     'h1                                         
#   prdata                       integral       32    'h0                                         
#   pwdata                       integral       32    'h6573b495                                  
#   delay                        integral       6     'h0                                         
#   begin_time                   time           64    345                                         
#   end_time                     time           64    355                                         
#   depth                        int            32    'd2                                         
#   parent sequence (name)       string         6     sseq_h                                      
#   parent sequence (full name)  string         44    uvm_test_top.env_h.slv_agent_h.seqr_h.sseq_h
#   sequencer                    string         37    uvm_test_top.env_h.slv_agent_h.seqr_h       
# ------------------------------------------------------------------------------------------------
# ACCESS_STATE_WAIT PASS                  385
# UVM_INFO ..\ENV\Master/apb_mas_mon.sv(68) @ 395: uvm_test_top.env_h.mas_agent_h.mon_h [mon_h] psel = 1, penb = 1, pwrite = 0, pwdata = 00000000, paddr = 00000000, pready = 1, prdata = 00000000
# no_of_cycles                  395 5
# UVM_INFO ..\ENV\Master/apb_sb.sv(33) @ 395: uvm_test_top.env_h.sb_h [apb_sb] EXP DATA - WRITE MAS
# ------------------------------------------------------------------------------------------------
# Name                           Type           Size  Value                                       
# ------------------------------------------------------------------------------------------------
# trans_h                        apb_mas_trans  -     @926                                        
#   paddr                        integral       32    'h4                                         
#   pwrite                       integral       1     'h1                                         
#   prdata                       integral       32    'h0                                         
#   pwdata                       integral       32    'h6573b495                                  
#   delay                        integral       6     'h0                                         
#   begin_time                   time           64    345                                         
#   end_time                     time           64    355                                         
#   depth                        int            32    'd2                                         
#   parent sequence (name)       string         6     sseq_h                                      
#   parent sequence (full name)  string         44    uvm_test_top.env_h.slv_agent_h.seqr_h.sseq_h
#   sequencer                    string         37    uvm_test_top.env_h.slv_agent_h.seqr_h       
# ------------------------------------------------------------------------------------------------
# ACCESS_STATE_WAIT PASS                  395
# UVM_INFO ..\ENV\Master/apb_mas_mon.sv(68) @ 405: uvm_test_top.env_h.mas_agent_h.mon_h [mon_h] psel = 1, penb = 1, pwrite = 0, pwdata = 00000000, paddr = 00000000, pready = 1, prdata = 00000000
# no_of_cycles                  405 5
# UVM_INFO ..\ENV\Master/apb_sb.sv(33) @ 405: uvm_test_top.env_h.sb_h [apb_sb] EXP DATA - WRITE MAS
# ------------------------------------------------------------------------------------------------
# Name                           Type           Size  Value                                       
# ------------------------------------------------------------------------------------------------
# trans_h                        apb_mas_trans  -     @926                                        
#   paddr                        integral       32    'h4                                         
#   pwrite                       integral       1     'h1                                         
#   prdata                       integral       32    'h0                                         
#   pwdata                       integral       32    'h6573b495                                  
#   delay                        integral       6     'h0                                         
#   begin_time                   time           64    345                                         
#   end_time                     time           64    355                                         
#   depth                        int            32    'd2                                         
#   parent sequence (name)       string         6     sseq_h                                      
#   parent sequence (full name)  string         44    uvm_test_top.env_h.slv_agent_h.seqr_h.sseq_h
#   sequencer                    string         37    uvm_test_top.env_h.slv_agent_h.seqr_h       
# ------------------------------------------------------------------------------------------------
# ACCESS_STATE_WAIT PASS                  405
# UVM_INFO ..\ENV\Master/apb_mas_mon.sv(68) @ 415: uvm_test_top.env_h.mas_agent_h.mon_h [mon_h] psel = 1, penb = 1, pwrite = 0, pwdata = 00000000, paddr = 00000000, pready = 1, prdata = 00000000
# no_of_cycles                  415 5
# no_of_cycles out of loop                  415 5
# pready 1                 415
# UVM_INFO ..\ENV\Master/apb_sb.sv(33) @ 415: uvm_test_top.env_h.sb_h [apb_sb] EXP DATA - WRITE MAS
# ------------------------------------------------------------------------------------------------
# Name                           Type           Size  Value                                       
# ------------------------------------------------------------------------------------------------
# trans_h                        apb_mas_trans  -     @926                                        
#   paddr                        integral       32    'h4                                         
#   pwrite                       integral       1     'h1                                         
#   prdata                       integral       32    'h0                                         
#   pwdata                       integral       32    'h6573b495                                  
#   delay                        integral       6     'h0                                         
#   begin_time                   time           64    345                                         
#   end_time                     time           64    355                                         
#   depth                        int            32    'd2                                         
#   parent sequence (name)       string         6     sseq_h                                      
#   parent sequence (full name)  string         44    uvm_test_top.env_h.slv_agent_h.seqr_h.sseq_h
#   sequencer                    string         37    uvm_test_top.env_h.slv_agent_h.seqr_h       
# ------------------------------------------------------------------------------------------------
# UVM_INFO ..\ENV\Slave/apb_slv_base_seqs.sv(31) @ 415: uvm_test_top.env_h.slv_agent_h.seqr_h@@sseq_h [sseq_h] before psel
# UVM_INFO ..\ENV\Slave/apb_slv_base_seqs.sv(46) @ 415: uvm_test_top.env_h.slv_agent_h.seqr_h@@sseq_h [sseq_h] **********************added to memory
# UVM_INFO ..\ENV\Slave/apb_slv_base_seqs.sv(48) @ 415: uvm_test_top.env_h.slv_agent_h.seqr_h@@sseq_h [sseq_h] [0]=0688cdb8
# UVM_INFO ..\ENV\Slave/apb_slv_base_seqs.sv(48) @ 415: uvm_test_top.env_h.slv_agent_h.seqr_h@@sseq_h [sseq_h] [1]=6573b495
# UVM_INFO ..\ENV\Slave/apb_slv_base_seqs.sv(48) @ 415: uvm_test_top.env_h.slv_agent_h.seqr_h@@sseq_h [sseq_h] [3]=78522f58
